Circuit: * C:\Users\Sam L\Documents\ANU work\ENGN2218\Draft3.asc

Warning: Multiple definitions of model "2scr375p" Type: BJT
Warning: Multiple definitions of model "bc857b" Type: BJT
Warning: Multiple definitions of model "bc847c" Type: BJT
Warning: Multiple definitions of model "bc847b" Type: BJT
Direct Newton iteration for .op point succeeded.
Semiconductor Device Operating Points:
                        --- Bipolar Transistors ---
Name:       q1
Model:    2n3904
Ib:       4.84e-03
Ic:       6.93e-03
Vbe:      8.42e-01
Vbc:      8.27e-01
Vce:      1.51e-02
BetaDC:   1.43e+00
Gm:       4.22e-01
Rpi:      2.46e+02
Rx:       2.00e+01
Ro:       1.48e+00
Cbe:      3.87e-10
Cbc:      1.83e-07
Cjs:      0.00e+00
BetaAC:   1.04e+02
Cbx:      0.00e+00
Ft:       3.66e+05



Date: Mon Feb 27 15:25:06 2023
Total elapsed time: 0.047 seconds.

tnom = 27
temp = 27
method = trap
totiter = 4
traniter = 0
tranpoints = 0
accept = 0
rejected = 0
matrix size = 8
fillins = 0
solver = Normal
Matrix Compiler1: 478 bytes object code size
Matrix Compiler2: 642 bytes object code size
