Circuit: * C:\Users\Sam L\Documents\ANU work\ENGN2218\Draft4.asc

Warning: Multiple definitions of model "2scr375p" Type: BJT
Warning: Multiple definitions of model "bc857b" Type: BJT
Warning: Multiple definitions of model "bc847c" Type: BJT
Warning: Multiple definitions of model "bc847b" Type: BJT
Direct Newton iteration for .op point succeeded.
Semiconductor Device Operating Points:
                        --- Bipolar Transistors ---
Name:       q1
Model:    2n3904
Ib:       2.37e-05
Ic:       7.08e-03
Vbe:      7.07e-01
Vbc:     -1.16e+00
Vce:      1.87e+00
BetaDC:   2.98e+02
Gm:       2.69e-01
Rpi:      1.09e+03
Rx:       2.00e+01
Ro:       1.43e+04
Cbe:      1.07e-10
Cbc:      2.94e-12
Cjs:      0.00e+00
BetaAC:   2.93e+02
Cbx:      0.00e+00
Ft:       3.89e+08



Date: Mon Feb 27 15:47:34 2023
Total elapsed time: 0.031 seconds.

tnom = 27
temp = 27
method = trap
totiter = 4
traniter = 0
tranpoints = 0
accept = 0
rejected = 0
matrix size = 12
fillins = 0
solver = Normal
Matrix Compiler1: 624 bytes object code size
Matrix Compiler2: 920 bytes object code size
